Freq.	V(out)
5.38000000000000e+000	2.85726597664648e+002,8.61781538843114e+001
1.07633011842266e+001	2.98373922718132e+002,-3.00580387126912e+000
1.61466023684532e+001	2.85665670764941e+002,-5.04582664115452e+001
2.15299035526798e+001	2.66353833165198e+002,-8.19159974289892e+001
2.69132047369064e+001	2.44676270645431e+002,-1.03348477775397e+002
3.22965059211329e+001	2.22803943382235e+002,-1.17454092061099e+002
3.76798071053595e+001	2.01995348964201e+002,-1.26076224673833e+002
4.30631082895861e+001	1.82909701887020e+002,-1.30657153843784e+002
4.84464094738127e+001	1.65807838620134e+002,-1.32333806928742e+002
5.38297106580393e+001	1.50706098552853e+002,-1.31979650344811e+002
5.92130118422659e+001	1.37486357073306e+002,-1.30247049702457e+002
6.45963130264925e+001	1.25967848265488e+002,-1.27611804784201e+002
6.99796142107191e+001	1.15950262328144e+002,-1.24414409211765e+002
7.53629153949457e+001	1.07237463228069e+002,-1.20894721086699e+002
8.07462165791723e+001	9.96491239850194e+001,-1.17219290130608e+002
8.61295177633989e+001	9.30253032776350e+001,-1.13502026179946e+002
9.15128189476255e+001	8.72271589704622e+001,-1.09819421822172e+002
9.68961201318521e+001	8.21357194028203e+001,-1.06221574857309e+002
1.02279421316079e+002	7.76498131862218e+001,-1.02740083760525e+002
1.07662722500305e+002	7.36837577399756e+001,-9.93936651329103e+001
1.13046023684532e+002	7.01651131653253e+001,-9.61921335366367e+001
1.18429324868758e+002	6.70326417752408e+001,-9.31392133385287e+001
1.23812626052985e+002	6.42345229959045e+001,-9.02345211589649e+001
1.29195927237212e+002	6.17268264949010e+001,-8.74749606187380e+001
1.34579228421438e+002	5.94722241434892e+001,-8.48557009522307e+001
1.39962529605665e+002	5.74389126019693e+001,-8.23708609561899e+001
1.45345830789891e+002	5.55997165210428e+001,-8.00139842147946e+001
1.50729131974118e+002	5.39313439823883e+001,-7.77783664354506e+001
1.56112433158345e+002	5.24137688901752e+001,-7.56572780145023e+001
1.61495734342571e+002	5.10297185312077e+001,-7.36441124439724e+001
1.66879035526798e+002	4.97642479301979e+001,-7.17324823308187e+001
1.72262336711024e+002	4.86043857026556e+001,-6.99162785370525e+001
1.77645637895251e+002	4.75388387739651e+001,-6.81897035026197e+001
1.83028939079477e+002	4.65577455876120e+001,-6.65472866477322e+001
1.88412240263704e+002	4.56524693010347e+001,-6.49838874914699e+001
1.93795541447931e+002	4.48154240136259e+001,-6.34946905081335e+001
1.99178842632157e+002	4.40399283367852e+001,-6.20751945825960e+001
2.04562143816384e+002	4.33200816486275e+001,-6.07211990952152e+001
2.09945445000610e+002	4.26506592161095e+001,-5.94287880670074e+001
2.15328746184837e+002	4.20270230506645e+001,-5.81943133657964e+001
2.20712047369064e+002	4.14450459198160e+001,-5.70143776643222e+001
2.26095348553290e+002	4.09010463894714e+001,-5.58858176184356e+001
2.31478649737517e+002	4.03917331408145e+001,-5.48056875741021e+001
2.36861950921743e+002	3.99141571067041e+001,-5.37712439979287e+001
2.42245252105970e+002	3.94656702192272e+001,-5.27799307452280e+001
2.47628553290196e+002	3.90438897618370e+001,-5.18293652227284e+001
2.53011854474423e+002	3.86466674857883e+001,-5.09173254632112e+001
2.58395155658650e+002	3.82720627871169e+001,-5.00417381029189e+001
2.63778456842876e+002	3.79183193536880e+001,-4.92006672344265e+001
2.69161758027103e+002	3.75838447849130e+001,-4.83923040958371e+001
2.74545059211329e+002	3.72671927648915e+001,-4.76149575514277e+001
2.79928360395556e+002	3.69670474337219e+001,-4.68670453142442e+001
2.85311661579783e+002	3.66822096561579e+001,-4.61470858608064e+001
2.90694962764009e+002	3.64115849314991e+001,-4.54536909881383e+001
2.96078263948236e+002	3.61541727264966e+001,-4.47855589646865e+001
3.01461565132462e+002	3.59090570448045e+001,-4.41414682289834e+001
3.06844866316689e+002	3.56753980734462e+001,-4.35202715926183e+001
3.12228167500915e+002	3.54524247690102e+001,-4.29208909061806e+001
3.17611468685142e+002	3.52394282657484e+001,-4.23423121504354e+001
3.22994769869369e+002	3.50357560039533e+001,-4.17835809171937e+001
3.28378071053595e+002	3.48408064906217e+001,-4.12437982473694e+001
3.33761372237822e+002	3.46540246163861e+001,-4.07221167962413e+001
3.39144673422048e+002	3.44748974627647e+001,-4.02177372984325e+001
3.44527974606275e+002	3.43029505421965e+001,-3.97299053071891e+001
3.49911275790502e+002	3.41377444209675e+001,-3.92579081851981e+001
3.55294576974728e+002	3.39788716813634e+001,-3.88010723255454e+001
3.60677878158955e+002	3.38259541848926e+001,-3.83587605837782e+001
3.66061179343181e+002	3.36786406031495e+001,-3.79303699033985e+001
3.71444480527408e+002	3.35366041870000e+001,-3.75153291187096e+001
3.76827781711634e+002	3.33995407482607e+001,-3.71130969204265e+001
3.82211082895861e+002	3.32671668312151e+001,-3.67231599706966e+001
3.87594384080088e+002	3.31392180539548e+001,-3.63450311554371e+001
3.92977685264314e+002	3.30154476017453e+001,-3.59782479625715e+001
3.98360986448541e+002	3.28956248569037e+001,-3.56223709764594e+001
4.03744287632767e+002	3.27795341511760e+001,-3.52769824788430e+001
4.09127588816994e+002	3.26669736283995e+001,-3.49416851481069e+001
4.14510890001221e+002	3.25577542064664e+001,-3.46161008490356e+001
4.19894191185447e+002	3.24516986288237e+001,-3.42998695059981e+001
4.25277492369674e+002	3.23486405968623e+001,-3.39926480530889e+001
4.30660793553900e+002	3.22484239753768e+001,-3.36941094552628e+001
4.36044094738127e+002	3.21509020642925e+001,-3.34039417952336e+001
4.41427395922353e+002	3.20559369302665e+001,-3.31218474209062e+001
4.46810697106580e+002	3.19633987928159e+001,-3.28475421489503e+001
4.52193998290807e+002	3.18731654597808e+001,-3.25807545203375e+001
4.57577299475033e+002	3.17851218078164e+001,-3.23212251039615e+001
4.62960600659260e+002	3.16991593037608e+001,-3.20687058448624e+001
4.68343901843486e+002	3.16151755632808e+001,-3.18229594536983e+001
4.73727203027713e+002	3.15330739435924e+001,-3.15837588347492e+001
4.79110504211939e+002	3.14527631671607e+001,-3.13508865494253e+001
4.84493805396166e+002	3.13741569738565e+001,-3.11241343129044e+001
4.89877106580393e+002	3.12971737990497e+001,-3.09033025215878e+001
4.95260407764619e+002	3.12217364755077e+001,-3.06881998092204e+001
5.00643708948846e+002	3.11477719570868e+001,-3.04786426295878e+001
5.06027010133072e+002	3.10752110624347e+001,-3.02744548641377e+001
5.11410311317299e+002	3.10039882370700e+001,-3.00754674527473e+001
5.16793612501526e+002	3.09340413323232e+001,-2.98815180460509e+001
5.22176913685752e+002	3.08653113998524e+001,-2.96924506779479e+001
5.27560214869979e+002	3.07977425003952e+001,-2.95081154569374e+001
5.32943516054205e+002	3.07312815257585e+001,-2.93283682750710e+001
5.38326817238432e+002	3.06658780329301e+001,-2.91530705332615e+001
5.43710118422659e+002	3.06014840893874e+001,-2.89820888820311e+001
5.49093419606885e+002	3.05380541288021e+001,-2.88152949766997e+001
5.54476720791112e+002	3.04755448162858e+001,-2.86525652459571e+001
5.59860021975339e+002	3.04139149225002e+001,-2.84937806731483e+001
5.65243323159565e+002	3.03531252059757e+001,-2.83388265893408e+001
5.70626624343792e+002	3.02931383029921e+001,-2.81875924775279e+001
5.76009925528019e+002	3.02339186245574e+001,-2.80399717873204e+001
5.81393226712245e+002	3.01754322598477e+001,-2.78958617592929e+001
5.86776527896472e+002	3.01176468857416e+001,-2.77551632586348e+001
5.92159829080699e+002	3.00605316820044e+001,-2.76177806174181e+001
5.97543130264925e+002	3.00040572516821e+001,-2.74836214849608e+001
6.02926431449152e+002	2.99481955463501e+001,-2.73525966859010e+001
6.08309732633378e+002	2.98929197959408e+001,-2.72246200854106e+001
6.13693033817605e+002	2.98382044427364e+001,-2.70996084612255e+001
6.19076335001832e+002	2.97840250793446e+001,-2.69774813820582e+001
6.24459636186058e+002	2.97303583903052e+001,-2.68581610920225e+001
6.29842937370285e+002	2.96771820971377e+001,-2.67415724007486e+001
6.35226238554512e+002	2.96244749065579e+001,-2.66276425788408e+001
6.40609539738738e+002	2.95722164617341e+001,-2.65163012584481e+001
6.45992840922965e+002	2.95203872962576e+001,-2.64074803385105e+001
6.51376142107192e+002	2.94689687907810e+001,-2.63011138946343e+001
6.56759443291418e+002	2.94179431320628e+001,-2.61971380931223e+001
6.62142744475645e+002	2.93672932743234e+001,-2.60954911091672e+001
6.67526045659871e+002	2.93170029027028e+001,-2.59961130486943e+001
6.72909346844098e+002	2.92670563987649e+001,-2.58989458740025e+001
6.78292648028325e+002	2.92174388078517e+001,-2.58039333326424e+001
6.83675949212551e+002	2.91681358082268e+001,-2.57110208896935e+001
6.89059250396778e+002	2.91191336818379e+001,-2.56201556629652e+001
6.94442551581005e+002	2.90704192866810e+001,-2.55312863612485e+001
6.99825852765231e+002	2.90219800305954e+001,-2.54443632251825e+001
7.05209153949458e+002	2.89738038464120e+001,-2.53593379708486e+001
7.10592455133685e+002	2.89258791684644e+001,-2.52761637357900e+001
7.15975756317911e+002	2.88781949102264e+001,-2.51947950274062e+001
7.21359057502138e+002	2.88307404431627e+001,-2.51151876735651e+001
7.26742358686364e+002	2.87835055766128e+001,-2.50372987753778e+001
7.32125659870591e+002	2.87364805387092e+001,-2.49610866619659e+001
7.37508961054818e+002	2.86896559582657e+001,-2.48865108471348e+001
7.42892262239044e+002	2.86430228475186e+001,-2.48135319879181e+001
7.48275563423271e+002	2.85965725857695e+001,-2.47421118448099e+001
7.53658864607498e+002	2.85502969038181e+001,-2.46722132437066e+001
7.59042165791724e+002	2.85041878691246e+001,-2.46038000393534e+001
7.64425466975951e+002	2.84582378717280e+001,-2.45368370803591e+001
7.69808768160178e+002	2.84124396108120e+001,-2.44712901755856e+001
7.75192069344404e+002	2.83667860819212e+001,-2.44071260619155e+001
7.80575370528631e+002	2.83212705647882e+001,-2.43443123733474e+001
7.85958671712857e+002	2.82758866117150e+001,-2.42828176112488e+001
7.91341972897084e+002	2.82306280365166e+001,-2.42226111158935e+001
7.96725274081311e+002	2.81854889039660e+001,-2.41636630390195e+001
8.02108575265537e+002	2.81404635197189e+001,-2.41059443175608e+001
8.07491876449764e+002	2.80955464207008e+001,-2.40494266482801e+001
8.12875177633991e+002	2.80507323659558e+001,-2.39940824635436e+001
8.18258478818217e+002	2.80060163278690e+001,-2.39398849078545e+001
8.23641780002444e+002	2.79613934838012e+001,-2.38868078154290e+001
8.29025081186671e+002	2.79168592081038e+001,-2.38348256885073e+001
8.34408382370897e+002	2.78724090644633e+001,-2.37839136765860e+001
8.39791683555124e+002	2.78280387985966e+001,-2.37340475563549e+001
8.45174984739351e+002	2.77837443312770e+001,-2.36852037123933e+001
8.50558285923577e+002	2.77395217516256e+001,-2.36373591186203e+001
8.55941587107804e+002	2.76953673107329e+001,-2.35904913203677e+001
8.61324888292030e+002	2.76512774155208e+001,-2.35445784171831e+001
8.66708189476257e+002	2.76072486228782e+001,-2.34995990461756e+001
8.72091490660484e+002	2.75632776340505e+001,-2.34555323660387e+001
8.77474791844710e+002	2.75193612892535e+001,-2.34123580415633e+001
8.82858093028937e+002	2.74754965625072e+001,-2.33700562288074e+001
8.88241394213164e+002	2.74316805567023e+001,-2.33286075607106e+001
8.93624695397390e+002	2.73879104988470e+001,-2.32879931332230e+001
8.99007996581617e+002	2.73441837355366e+001,-2.32481944919640e+001
9.04391297765844e+002	2.73004977285662e+001,-2.32091936193249e+001
9.09774598950070e+002	2.72568500507601e+001,-2.31709729219920e+001
9.15157900134297e+002	2.72132383819451e+001,-2.31335152189279e+001
9.20541201318523e+002	2.71696605050906e+001,-2.30968037297673e+001
9.25924502502750e+002	2.71261143026110e+001,-2.30608220635903e+001
9.31307803686977e+002	2.70825977527860e+001,-2.30255542080894e+001
9.36691104871203e+002	2.70391089263593e+001,-2.29909845190788e+001
9.42074406055430e+002	2.69956459832366e+001,-2.29570977103949e+001
9.47457707239657e+002	2.69522071693258e+001,-2.29238788440809e+001
9.52841008423883e+002	2.69087908135015e+001,-2.28913133209419e+001
9.58224309608110e+002	2.68653953246756e+001,-2.28593868713958e+001
9.63607610792337e+002	2.68220191889878e+001,-2.28280855465971e+001
9.68990911976563e+002	2.67786609670968e+001,-2.27973957098898e+001
9.74374213160790e+002	2.67353192915741e+001,-2.27673040285088e+001
9.79757514345016e+002	2.66919928643976e+001,-2.27377974655616e+001
9.85140815529243e+002	2.66486804545317e+001,-2.27088632722590e+001
9.90524116713470e+002	2.66053808956092e+001,-2.26804889804006e+001
9.95907417897696e+002	2.65620930836792e+001,-2.26526623950744e+001
1.00129071908192e+003	2.65188159750562e+001,-2.26253715876352e+001
1.00667402026615e+003	2.64755485842369e+001,-2.25986048888358e+001
1.01205732145038e+003	2.64322899818923e+001,-2.25723508822360e+001
1.01744062263460e+003	2.63890392929358e+001,-2.25465983977672e+001
1.02282392381883e+003	2.63457956946527e+001,-2.25213365055184e+001
1.02820722500306e+003	2.63025584149055e+001,-2.24965545097113e+001
1.03359052618728e+003	2.62593267304013e+001,-2.24722419428537e+001
1.03897382737151e+003	2.62160999650089e+001,-2.24483885600559e+001
1.04435712855574e+003	2.61728774881409e+001,-2.24249843335610e+001
1.04974042973996e+003	2.61296587132117e+001,-2.24020194473812e+001
1.05512373092419e+003	2.60864430961035e+001,-2.23794842921460e+001
1.06050703210842e+003	2.60432301337311e+001,-2.23573694600597e+001
1.06589033329264e+003	2.60000193626307e+001,-2.23356657400374e+001
1.07127363447687e+003	2.59568103576015e+001,-2.23143641129765e+001
1.07665693566110e+003	2.59136027303960e+001,-2.22934557471497e+001
1.08204023684532e+003	2.58703961284512e+001,-2.22729319937571e+001
1.08742353802955e+003	2.58271902336590e+001,-2.22527843825823e+001
1.09280683921378e+003	2.57839847611950e+001,-2.22330046177930e+001
1.09819014039800e+003	2.57407794583588e+001,-2.22135845738487e+001
1.10357344158223e+003	2.56975741034759e+001,-2.21945162915218e+001
1.10895674276646e+003	2.56543685048211e+001,-2.21757919740419e+001
1.11434004395068e+003	2.56111624995888e+001,-2.21574039833431e+001
1.11972334513491e+003	2.55679559528830e+001,-2.21393448364199e+001
1.12510664631914e+003	2.55247487567567e+001,-2.21216072017744e+001
1.13048994750336e+003	2.54815408292647e+001,-2.21041838959678e+001
1.13587324868759e+003	2.54383321135609e+001,-2.20870678802735e+001
1.14125654987182e+003	2.53951225770135e+001,-2.20702522574019e+001
1.14663985105604e+003	2.53519122103626e+001,-2.20537302683342e+001
1.15202315224027e+003	2.53087010268832e+001,-2.20374952892407e+001
1.15740645342450e+003	2.52654890615958e+001,-2.20215408284603e+001
1.16278975460872e+003	2.52222763704934e+001,-2.20058605235926e+001
1.16817305579295e+003	2.51790630297897e+001,-2.19904481386366e+001
1.17355635697718e+003	2.51358491351856e+001,-2.19752975612331e+001
1.17893965816140e+003	2.50926348011800e+001,-2.19604027999619e+001
1.18432295934563e+003	2.50494201603819e+001,-2.19457579816996e+001
1.18970626052986e+003	2.50062053628433e+001,-2.19313573490887e+001
1.19508956171408e+003	2.49629905754313e+001,-2.19171952580123e+001
1.20047286289831e+003	2.49197759811937e+001,-2.19032661752037e+001
1.20585616408254e+003	2.48765617787746e+001,-2.18895646758465e+001
1.21123946526676e+003	2.48333481818087e+001,-2.18760854412840e+001
1.21662276645099e+003	2.47901354183725e+001,-2.18628232567831e+001
1.22200606763522e+003	2.47469237304303e+001,-2.18497730093212e+001
1.22738936881944e+003	2.47037133733039e+001,-2.18369296854656e+001
1.23277267000367e+003	2.46605046151452e+001,-2.18242883692945e+001
1.23815597118790e+003	2.46172977364523e+001,-2.18118442403639e+001
1.24353927237212e+003	2.45740930295706e+001,-2.17995925717236e+001
1.24892257355635e+003	2.45308907982282e+001,-2.17875287279995e+001
1.25430587474058e+003	2.44876913570695e+001,-2.17756481634948e+001
1.25968917592480e+003	2.44444950312230e+001,-2.17639464203689e+001
1.26507247710903e+003	2.44013021558645e+001,-2.17524191268363e+001
1.27045577829326e+003	2.43581130757903e+001,-2.17410619954218e+001
1.27583907947748e+003	2.43149281450296e+001,-2.17298708212520e+001
1.28122238066171e+003	2.42717477264321e+001,-2.17188414803900e+001
1.28660568184593e+003	2.42285721912968e+001,-2.17079699282086e+001
1.29198898303016e+003	2.41854019189982e+001,-2.16972521978104e+001
1.29737228421439e+003	2.41422372966154e+001,-2.16866843984668e+001
1.30275558539861e+003	2.40990787186009e+001,-2.16762627141143e+001
1.30813888658284e+003	2.40559265864222e+001,-2.16659834018710e+001
1.31352218776707e+003	2.40127813082456e+001,-2.16558427905960e+001
1.31890548895129e+003	2.39696432986013e+001,-2.16458372794780e+001
1.32428879013552e+003	2.39265129780855e+001,-2.16359633366573e+001
1.32967209131975e+003	2.38833907730486e+001,-2.16262174978819e+001
1.33505539250397e+003	2.38402771153075e+001,-2.16165963651899e+001
1.34043869368820e+003	2.37971724418554e+001,-2.16070966056367e+001
1.34582199487243e+003	2.37540771945847e+001,-2.15977149500094e+001
1.35120529605665e+003	2.37109918200246e+001,-2.15884481916376e+001
1.35658859724088e+003	2.36679167690700e+001,-2.15792931851592e+001
1.36197189842511e+003	2.36248524967328e+001,-2.15702468453707e+001
1.36735519960933e+003	2.35817994618981e+001,-2.15613061460668e+001
1.37273850079356e+003	2.35387581270756e+001,-2.15524681189240e+001
1.37812180197779e+003	2.34957289581734e+001,-2.15437298524014e+001
1.38350510316201e+003	2.34527124242730e+001,-2.15350884906709e+001
1.38888840434624e+003	2.34097089974032e+001,-2.15265412325603e+001
1.39427170553047e+003	2.33667191523348e+001,-2.15180853305331e+001
1.39965500671469e+003	2.33237433663667e+001,-2.15097180896829e+001
1.40503830789892e+003	2.32807821191222e+001,-2.15014368667461e+001
1.41042160908315e+003	2.32378358923689e+001,-2.14932390691445e+001
1.41580491026737e+003	2.31949051698096e+001,-2.14851221540485e+001
1.42118821145160e+003	2.31519904369091e+001,-2.14770836274333e+001
1.42657151263583e+003	2.31090921807122e+001,-2.14691210432075e+001
1.43195481382005e+003	2.30662108896706e+001,-2.14612320023149e+001
1.43733811500428e+003	2.30233470534687e+001,-2.14534141518624e+001
1.44272141618851e+003	2.29805011628712e+001,-2.14456651842877e+001
1.44810471737273e+003	2.29376737095509e+001,-2.14379828365254e+001
1.45348801855696e+003	2.28948651859415e+001,-2.14303648891933e+001
1.45887131974119e+003	2.28520760850866e+001,-2.14228091657982e+001
1.46425462092541e+003	2.28093069004888e+001,-2.14153135319639e+001
1.46963792210964e+003	2.27665581259763e+001,-2.14078758946519e+001
1.47502122329387e+003	2.27238302555612e+001,-2.14004942014353e+001
1.48040452447809e+003	2.26811237833032e+001,-2.13931664397556e+001
1.48578782566232e+003	2.26384392031862e+001,-2.13858906362015e+001
1.49117112684655e+003	2.25957770089877e+001,-2.13786648558132e+001
1.49655442803077e+003	2.25531376941619e+001,-2.13714872014010e+001
1.50193772921500e+003	2.25105217517125e+001,-2.13643558128457e+001
1.50732103039923e+003	2.24679296740963e+001,-2.13572688664632e+001
1.51270433158345e+003	2.24253619530829e+001,-2.13502245743413e+001
1.51808763276768e+003	2.23828190796760e+001,-2.13432211837094e+001
1.52347093395191e+003	2.23403015439948e+001,-2.13362569763164e+001
1.52885423513613e+003	2.22978098351676e+001,-2.13293302678130e+001
1.53423753632036e+003	2.22553444412503e+001,-2.13224394071576e+001
1.53962083750459e+003	2.22129058491111e+001,-2.13155827760295e+001
1.54500413868881e+003	2.21704945443546e+001,-2.13087587882514e+001
1.55038743987304e+003	2.21281110112222e+001,-2.13019658892268e+001
1.55577074105727e+003	2.20857557325098e+001,-2.12952025553725e+001
1.56115404224149e+003	2.20434291894850e+001,-2.12884672935998e+001
1.56653734342572e+003	2.20011318618002e+001,-2.12817586407596e+001
1.57192064460995e+003	2.19588642274200e+001,-2.12750751631268e+001
1.57730394579417e+003	2.19166267625440e+001,-2.12684154558880e+001
1.58268724697840e+003	2.18744199415271e+001,-2.12617781426388e+001
1.58807054816263e+003	2.18322442368168e+001,-2.12551618748833e+001
1.59345384934685e+003	2.17901001188805e+001,-2.12485653315576e+001
1.59883715053108e+003	2.17479880561338e+001,-2.12419872185512e+001
1.60422045171531e+003	2.17059085148894e+001,-2.12354262682343e+001
